T3040 4702:061 SEGGER J-Link V6.46 Log File (0000ms, 14625ms total)
T3040 4702:061 DLL Compiled: May 23 2019 17:49:56 (0000ms, 14625ms total)
T3040 4702:061 Logging started @ 2021-02-21 01:12 (0000ms, 14625ms total)
T3040 4702:061 JLINK_SetWarnOutHandler(...) (0000ms, 14625ms total)
T3040 4702:061 JLINK_OpenEx(...)
Firmware: J-Link ARM-OB STM32 compiled Aug 22 2012 19:52:04
Hardware: V7.00
S/N: 20090928
Feature(s): RDI,FlashDL,FlashBP,JFlash,GDB
TELNET listener socket opened on port 19021WEBSRV 
Starting webserver (0025ms, 14650ms total)
T3040 4702:061 WEBSRV Webserver running on local port 19080 (0026ms, 14651ms total)
T3040 4702:061   returns O.K. (0026ms, 14651ms total)
T3040 4702:087 JLINK_GetEmuCaps()  returns 0x88EA5833 (0000ms, 14651ms total)
T3040 4702:088 JLINK_TIF_GetAvailable(...) (0000ms, 14651ms total)
T3040 4702:088 JLINK_SetErrorOutHandler(...) (0000ms, 14651ms total)
T3040 4702:088 JLINK_ExecCommand("ProjectFile = "C:\Users\31320\Desktop\ÅàÑµÓÃ\USER\JLinkSettings.ini"", ...).   returns 0x00 (0001ms, 14652ms total)
T3040 4702:097 JLINK_ExecCommand("Device = STM32F103C8", ...). Device "STM32F103C8" selected.  returns 0x00 (0004ms, 14656ms total)
T3040 4702:101 JLINK_ExecCommand("DisableConnectionTimeout", ...).   returns 0x01 (0000ms, 14656ms total)
T3040 4702:101 JLINK_GetHardwareVersion()  returns 0x11170 (0000ms, 14656ms total)
T3040 4702:101 JLINK_GetDLLVersion()  returns 64600 (0000ms, 14656ms total)
T3040 4702:101 JLINK_GetFirmwareString(...) (0000ms, 14656ms total)
T3040 4702:106 JLINK_GetDLLVersion()  returns 64600 (0000ms, 14656ms total)
T3040 4702:106 JLINK_GetCompileDateTime() (0000ms, 14656ms total)
T3040 4702:108 JLINK_GetFirmwareString(...) (0000ms, 14656ms total)
T3040 4702:110 JLINK_GetHardwareVersion()  returns 0x11170 (0000ms, 14656ms total)
T3040 4702:119 JLINK_TIF_Select(JLINKARM_TIF_SWD)  returns 0x00 (0001ms, 14657ms total)
T3040 4702:120 JLINK_SetSpeed(5000) (0000ms, 14657ms total)
T3040 4702:120 JLINK_GetId() >0x10B TIF>Found SW-DP with ID 0x2BA01477 >0x0D TIF> >0x28 TIF> >0x0D TIF> >0x28 TIF> >0x0D TIF> >0x28 TIF> >0x0D TIF> >0x28 TIF> >0x0D TIF> >0x21 TIF> >0x0D TIF> >0x28 TIF> >0x0D TIF> >0x28 TIF> >0x0D TIF> >0x28 TIF> >0x0D TIF> >0x21 TIF> >0x0D TIF> >0x21 TIF> >0x0D TIF> >0x28 TIF> >0x0D TIF> >0x21 TIF> >0x0D TIF> >0x21 TIF> >0x0D TIF> >0x28 TIF> >0x0D TIF> >0x21 TIF> >0x0D TIF> >0x21 TIF> >0x0D TIF> >0x28 TIF> >0x0D TIF> >0x21 TIF> >0x0D TIF> >0x21 TIF> >0x0D TIF>
 >0x28 TIF> >0x0D TIF> >0x21 TIF> >0x0D TIF> >0x21 TIF> >0x0D TIF> >0x28 TIF> >0x0D TIF> >0x21 TIF> >0x0D TIF> >0x21 TIF> >0x0D TIF> >0x28 TIF> >0x0D TIF> >0x21 TIF> >0x0D TIF> >0x21 TIF> >0x10B TIF>Found SW-DP with ID 0x2BA01477 >0x0D TIF> >0x28 TIF> >0x0D TIF> >0x28 TIF> >0x0D TIF> >0x28 TIF> >0x0D TIF> >0x28 TIF> >0x0D TIF> >0x21 TIF> >0x0D TIF> >0x28 TIF>Scanning AP map to find all available APs >0x0D TIF> >0x28 TIF> >0x0D TIF> >0x21 TIF> >0x0D TIF> >0x21 TIF> >0x0D TIF> >0x28 TIF> >0x0D TIF>
 >0x21 TIF> >0x0D TIF> >0x21 TIF>AP[1]: Stopped AP scan as end of AP map has been reachedAP[0]: AHB-AP (IDR: 0x24770011)Iterating through AP map to find AHB-AP to use >0x42 TIF> >0x28 TIF> >0x0D TIF> >0x28 TIF> >0x0D TIF> >0x21 TIF> >0x0D TIF> >0x21 TIF> >0x42 TIF> >0x28 TIF> >0x0D TIF> >0x28 TIF> >0x0D TIF> >0x28 TIF> >0x0D TIF> >0x21 TIF> >0x0D TIF> >0x21 TIF>AP[0]: Core foundAP[0]: AHB-AP ROM base: 0xE00FF000 >0x0D TIF> >0x28 TIF> >0x0D TIF> >0x28 TIF> >0x0D TIF> >0x28 TIF> >0x0D TIF> >0x21 TIF>
 >0x0D TIF> >0x21 TIF>CPUID register: 0x412FC231. Implementer code: 0x41 (ARM)Found Cortex-M3 r2p1, Little endian. -- Max. mem block: 0x00002C18 -- CPU_ReadMem(4 bytes @ 0xE000EDF0) -- CPU_WriteMem(4 bytes @ 0xE000EDF0) -- CPU_ReadMem(4 bytes @ 0xE0002000)FPUnit: 6 code (BP) slots and 2 literal slots -- CPU_ReadMem(4 bytes @ 0xE000EDFC) -- CPU_WriteMem(4 bytes @ 0xE000EDFC) -- CPU_ReadMem(4 bytes @ 0xE0001000) -- CPU_WriteMem(4 bytes @ 0xE0001000) -- CPU_ReadMem(4 bytes @ 0xE000ED88)
 -- CPU_WriteMem(4 bytes @ 0xE000ED88) -- CPU_ReadMem(4 bytes @ 0xE000ED88) -- CPU_WriteMem(4 bytes @ 0xE000ED88)CoreSight components:ROMTbl[0] @ E00FF000 -- CPU_ReadMem(16 bytes @ 0xE00FF000) -- CPU_ReadMem(16 bytes @ 0xE000EFF0) -- CPU_ReadMem(16 bytes @ 0xE000EFE0)ROMTbl[0][0]: E000E000, CID: B105E00D, PID: 000BB000 SCS -- CPU_ReadMem(16 bytes @ 0xE0001FF0) -- CPU_ReadMem(16 bytes @ 0xE0001FE0)ROMTbl[0][1]: E0001000, CID: B105E00D, PID: 003BB002 DWT -- CPU_ReadMem(16 bytes @ 0xE0002FF0)
 -- CPU_ReadMem(16 bytes @ 0xE0002FE0)ROMTbl[0][2]: E0002000, CID: B105E00D, PID: 002BB003 FPB -- CPU_ReadMem(16 bytes @ 0xE0000FF0) -- CPU_ReadMem(16 bytes @ 0xE0000FE0)ROMTbl[0][3]: E0000000, CID: B105E00D, PID: 003BB001 ITM -- CPU_ReadMem(16 bytes @ 0xE00FF010) -- CPU_ReadMem(16 bytes @ 0xE0040FF0) -- CPU_ReadMem(16 bytes @ 0xE0040FE0)ROMTbl[0][4]: E0040000, CID: B105900D, PID: 003BB923 TPIU-Lite -- CPU_ReadMem(16 bytes @ 0xE0041FF0) -- CPU_ReadMem(16 bytes @ 0xE0041FE0)
ROMTbl[0][5]: E0041000, CID: B105900D, PID: 003BB924 ETM-M3 >0x0D TIF> >0x21 TIF>  returns 0x2BA01477 (0250ms, 14907ms total)
T3040 4702:370 JLINK_GetDLLVersion()  returns 64600 (0000ms, 14907ms total)
T3040 4702:370 JLINK_CORE_GetFound()  returns 0x30000FF (0000ms, 14907ms total)
T3040 4702:370 JLINK_GetDebugInfo(0x100 = JLINKARM_ROM_TABLE_ADDR_INDEX) -- Value=0xE00FF000  returns 0x00 (0000ms, 14907ms total)
T3040 4702:372 JLINK_GetDebugInfo(0x100 = JLINKARM_ROM_TABLE_ADDR_INDEX) -- Value=0xE00FF000  returns 0x00 (0000ms, 14907ms total)
T3040 4702:372 JLINK_GetDebugInfo(0x101 = JLINKARM_DEBUG_INFO_ETM_ADDR_INDEX) -- Value=0xE0041000  returns 0x00 (0000ms, 14907ms total)
T3040 4702:372 JLINK_ReadMemEx(0xE0041FD0, 0x0020 Bytes, ..., Flags = 0x02000004) -- CPU_ReadMem(32 bytes @ 0xE0041FD0) - Data: 04 00 00 00 00 00 00 00 00 00 00 00 00 00 00 00 ...  returns 0x20 (0001ms, 14908ms total)
T3040 4702:373 JLINK_GetDebugInfo(0x102 = JLINKARM_DEBUG_INFO_MTB_ADDR_INDEX) -- Value=0x00000000  returns 0x00 (0000ms, 14908ms total)
T3040 4702:373 JLINK_GetDebugInfo(0x103 = JLINKARM_DEBUG_INFO_TPIU_ADDR_INDEX) -- Value=0xE0040000  returns 0x00 (0000ms, 14908ms total)
T3040 4702:373 JLINK_GetDebugInfo(0x104 = JLINKARM_DEBUG_INFO_ITM_ADDR_INDEX) -- Value=0xE0000000  returns 0x00 (0000ms, 14908ms total)
T3040 4702:373 JLINK_GetDebugInfo(0x105 = JLINKARM_DEBUG_INFO_DWT_ADDR_INDEX) -- Value=0xE0001000  returns 0x00 (0000ms, 14908ms total)
T3040 4702:373 JLINK_GetDebugInfo(0x106 = JLINKARM_DEBUG_INFO_FPB_ADDR_INDEX) -- Value=0xE0002000  returns 0x00 (0000ms, 14908ms total)
T3040 4702:373 JLINK_GetDebugInfo(0x107 = JLINKARM_DEBUG_INFO_NVIC_ADDR_INDEX) -- Value=0xE000E000  returns 0x00 (0000ms, 14908ms total)
T3040 4702:373 JLINK_GetDebugInfo(0x10C = JLINKARM_DEBUG_INFO_DBG_ADDR_INDEX) -- Value=0xE000EDF0  returns 0x00 (0000ms, 14908ms total)
T3040 4702:373 JLINK_GetDebugInfo(0x01 = Unknown) -- Value=0x00000000  returns 0x00 (0000ms, 14908ms total)
T3040 4702:373 JLINK_ReadMemU32(0xE000ED00, 0x0001 Items, ...) -- CPU_ReadMem(4 bytes @ 0xE000ED00) - Data: 31 C2 2F 41  returns 1 (0001ms, 14909ms total)
T3040 4702:374 JLINK_GetDebugInfo(0x10F = JLINKARM_DEBUG_INFO_HAS_CORTEX_M_SECURITY_EXT_INDEX) -- Value=0x00000000  returns 0x00 (0000ms, 14909ms total)
T3040 4702:374 JLINK_SetResetType(JLINKARM_CM3_RESET_TYPE_NORMAL)  returns JLINKARM_CM3_RESET_TYPE_NORMAL (0000ms, 14909ms total)
T3040 4702:374 JLINK_Reset() -- CPU is running -- CPU_WriteMem(4 bytes @ 0xE000EDF0) -- CPU is running -- CPU_WriteMem(4 bytes @ 0xE000EDFC)Reset: Halt core after reset via DEMCR.VC_CORERESET. >0x35 TIF>Reset: Reset device via AIRCR.SYSRESETREQ. -- CPU is running -- CPU_WriteMem(4 bytes @ 0xE000ED0C) >0x0D TIF> >0x28 TIF> -- CPU_ReadMem(4 bytes @ 0xE000EDF0) -- CPU_ReadMem(4 bytes @ 0xE000EDF0) -- CPU is running -- CPU_WriteMem(4 bytes @ 0xE000EDF0) -- CPU is running -- CPU_WriteMem(4 bytes @ 0xE000EDFC)
 -- CPU_ReadMem(4 bytes @ 0xE000EDF0) -- CPU_WriteMem(4 bytes @ 0xE0002000) -- CPU_ReadMem(4 bytes @ 0xE000EDFC) -- CPU_ReadMem(4 bytes @ 0xE0001000) (0076ms, 14985ms total)
T3040 4702:450 JLINK_Halt()  returns 0x00 (0000ms, 14985ms total)
T3040 4702:450 JLINK_ReadMemU32(0xE000EDF0, 0x0001 Items, ...) -- CPU_ReadMem(4 bytes @ 0xE000EDF0) - Data: 03 00 03 00  returns 1 (0001ms, 14986ms total)
T3040 4702:451 JLINK_WriteU32(0xE000EDF0, 0xA05F0003) -- CPU_WriteMem(4 bytes @ 0xE000EDF0)  returns 0 (0000ms, 14986ms total)
T3040 4702:451 JLINK_WriteU32(0xE000EDFC, 0x01000000) -- CPU_WriteMem(4 bytes @ 0xE000EDFC)  returns 0 (0001ms, 14987ms total)
T3040 4702:460 JLINK_GetHWStatus(...)  returns 0x00 (0000ms, 14987ms total)
T3040 4702:467 JLINK_GetNumBPUnits(Type = 0xFFFFFF00)  returns 0x06 (0000ms, 14987ms total)
T3040 4702:467 JLINK_GetNumBPUnits(Type = 0xF0)  returns 0x2000 (0000ms, 14987ms total)
T3040 4702:467 JLINK_GetNumWPUnits()  returns 0x04 (0000ms, 14987ms total)
T3040 4702:475 JLINK_GetSpeed()  returns 0xFA0 (0000ms, 14987ms total)
T3040 4702:479 JLINK_ReadMemU32(0xE000E004, 0x0001 Items, ...) -- CPU_ReadMem(4 bytes @ 0xE000E004) - Data: 01 00 00 00  returns 1 (0000ms, 14987ms total)
T3040 4702:479 JLINK_ReadMemU32(0xE000E004, 0x0001 Items, ...) -- CPU_ReadMem(4 bytes @ 0xE000E004) - Data: 01 00 00 00  returns 1 (0001ms, 14988ms total)
T3040 4702:480 JLINK_WriteMemEx(0xE0001000, 0x001C Bytes, ..., Flags = 0x02000004) - Data: 01 00 00 00 00 00 00 00 00 00 00 00 00 00 00 00 ... -- CPU_WriteMem(28 bytes @ 0xE0001000)  returns 0x1C (0002ms, 14990ms total)
T3040 4702:482 JLINK_Halt()  returns 0x00 (0000ms, 14990ms total)
T3040 4702:482 JLINK_IsHalted()  returns TRUE (0000ms, 14990ms total)
T3040 4702:485 JLINK_WriteMem(0x20000000, 0x0164 Bytes, ...) - Data: 00 BE 0A E0 0D 78 2D 06 68 40 08 24 40 00 00 D3 ... -- CPU_WriteMem(356 bytes @ 0x20000000)  returns 0x164 (0005ms, 14995ms total)
T3040 4702:490 JLINK_WriteReg(R0, 0x08000000)  returns 0x00 (0000ms, 14995ms total)
T3040 4702:490 JLINK_WriteReg(R1, 0x00B71B00)  returns 0x00 (0000ms, 14995ms total)
T3040 4702:490 JLINK_WriteReg(R2, 0x00000001)  returns 0x00 (0000ms, 14995ms total)
T3040 4702:490 JLINK_WriteReg(R3, 0x00000000)  returns 0x00 (0000ms, 14995ms total)
T3040 4702:490 JLINK_WriteReg(R4, 0x00000000)  returns 0x00 (0000ms, 14995ms total)
T3040 4702:490 JLINK_WriteReg(R5, 0x00000000)  returns 0x00 (0000ms, 14995ms total)
T3040 4702:490 JLINK_WriteReg(R6, 0x00000000)  returns 0x00 (0000ms, 14995ms total)
T3040 4702:490 JLINK_WriteReg(R7, 0x00000000)  returns 0x00 (0000ms, 14995ms total)
T3040 4702:490 JLINK_WriteReg(R8, 0x00000000)  returns 0x00 (0000ms, 14995ms total)
T3040 4702:490 JLINK_WriteReg(R9, 0x20000160)  returns 0x00 (0001ms, 14996ms total)
T3040 4702:491 JLINK_WriteReg(R10, 0x00000000)  returns 0x00 (0000ms, 14996ms total)
T3040 4702:491 JLINK_WriteReg(R11, 0x00000000)  returns 0x00 (0000ms, 14996ms total)
T3040 4702:491 JLINK_WriteReg(R12, 0x00000000)  returns 0x00 (0000ms, 14996ms total)
T3040 4702:491 JLINK_WriteReg(R13 (SP), 0x20001000)  returns 0x00 (0000ms, 14996ms total)
T3040 4702:491 JLINK_WriteReg(R14, 0x20000001)  returns 0x00 (0000ms, 14996ms total)
T3040 4702:491 JLINK_WriteReg(R15 (PC), 0x20000038)  returns 0x00 (0000ms, 14996ms total)
T3040 4702:491 JLINK_WriteReg(XPSR, 0x01000000)  returns 0x00 (0000ms, 14996ms total)
T3040 4702:491 JLINK_WriteReg(MSP, 0x20001000)  returns 0x00 (0000ms, 14996ms total)
T3040 4702:491 JLINK_WriteReg(PSP, 0x20001000)  returns 0x00 (0000ms, 14996ms total)
T3040 4702:491 JLINK_WriteReg(CFBP, 0x00000000)  returns 0x00 (0000ms, 14996ms total)
T3040 4702:491 JLINK_SetBPEx(Addr = 0x20000000, Type = 0xFFFFFFF2) -- CPU_ReadMem(2 bytes @ 0x20000000)  returns 0x00000001 (0000ms, 14996ms total)
T3040 4702:491 JLINK_Go() -- CPU_WriteMem(2 bytes @ 0x20000000) -- CPU_ReadMem(4 bytes @ 0xE0001000) -- CPU_WriteMem(4 bytes @ 0xE0002008) -- CPU_WriteMem(4 bytes @ 0xE000200C) -- CPU_WriteMem(4 bytes @ 0xE0002010) -- CPU_WriteMem(4 bytes @ 0xE0002014) -- CPU_WriteMem(4 bytes @ 0xE0002018) -- CPU_WriteMem(4 bytes @ 0xE000201C) -- CPU_WriteMem(4 bytes @ 0xE0001004) (0008ms, 15004ms total)
T3040 4702:499 JLINK_IsHalted() -- CPU_ReadMem(2 bytes @ 0x20000000)  returns TRUE (0004ms, 15008ms total)
T3040 4702:503 JLINK_ReadReg(R15 (PC))  returns 0x20000000 (0000ms, 15004ms total)
T3040 4702:503 JLINK_ClrBPEx(BPHandle = 0x00000001)  returns 0x00 (0000ms, 15004ms total)
T3040 4702:503 JLINK_ReadReg(R0)  returns 0x00000000 (0000ms, 15004ms total)
T3040 4702:504 JLINK_WriteReg(R0, 0x08000000)  returns 0x00 (0000ms, 15004ms total)
T3040 4702:504 JLINK_WriteReg(R1, 0x00000400)  returns 0x00 (0000ms, 15004ms total)
T3040 4702:504 JLINK_WriteReg(R2, 0x000000FF)  returns 0x00 (0000ms, 15004ms total)
T3040 4702:504 JLINK_WriteReg(R3, 0x00000000)  returns 0x00 (0000ms, 15004ms total)
T3040 4702:504 JLINK_WriteReg(R4, 0x00000000)  returns 0x00 (0000ms, 15004ms total)
T3040 4702:504 JLINK_WriteReg(R5, 0x00000000)  returns 0x00 (0000ms, 15004ms total)
T3040 4702:504 JLINK_WriteReg(R6, 0x00000000)  returns 0x00 (0000ms, 15004ms total)
T3040 4702:504 JLINK_WriteReg(R7, 0x00000000)  returns 0x00 (0000ms, 15004ms total)
T3040 4702:504 JLINK_WriteReg(R8, 0x00000000)  returns 0x00 (0000ms, 15004ms total)
T3040 4702:504 JLINK_WriteReg(R9, 0x20000160)  returns 0x00 (0000ms, 15004ms total)
T3040 4702:504 JLINK_WriteReg(R10, 0x00000000)  returns 0x00 (0000ms, 15004ms total)
T3040 4702:504 JLINK_WriteReg(R11, 0x00000000)  returns 0x00 (0000ms, 15004ms total)
T3040 4702:504 JLINK_WriteReg(R12, 0x00000000)  returns 0x00 (0000ms, 15004ms total)
T3040 4702:504 JLINK_WriteReg(R13 (SP), 0x20001000)  returns 0x00 (0000ms, 15004ms total)
T3040 4702:504 JLINK_WriteReg(R14, 0x20000001)  returns 0x00 (0000ms, 15004ms total)
T3040 4702:504 JLINK_WriteReg(R15 (PC), 0x20000020)  returns 0x00 (0000ms, 15004ms total)
T3040 4702:504 JLINK_WriteReg(XPSR, 0x01000000)  returns 0x00 (0000ms, 15004ms total)
T3040 4702:504 JLINK_WriteReg(MSP, 0x20001000)  returns 0x00 (0000ms, 15004ms total)
T3040 4702:504 JLINK_WriteReg(PSP, 0x20001000)  returns 0x00 (0000ms, 15004ms total)
T3040 4702:504 JLINK_WriteReg(CFBP, 0x00000000)  returns 0x00 (0001ms, 15005ms total)
T3040 4702:505 JLINK_SetBPEx(Addr = 0x20000000, Type = 0xFFFFFFF2)  returns 0x00000002 (0000ms, 15005ms total)
T3040 4702:505 JLINK_Go() -- CPU_ReadMem(4 bytes @ 0xE0001000) (0004ms, 15009ms total)
T3040 4702:509 JLINK_IsHalted() -- CPU_ReadMem(2 bytes @ 0x20000000)  returns TRUE (0005ms, 15014ms total)
T3040 4702:514 JLINK_ReadReg(R15 (PC))  returns 0x20000000 (0000ms, 15009ms total)
T3040 4702:514 JLINK_ClrBPEx(BPHandle = 0x00000002)  returns 0x00 (0000ms, 15009ms total)
T3040 4702:514 JLINK_ReadReg(R0)  returns 0x00000001 (0000ms, 15009ms total)
T3040 4702:514 JLINK_WriteReg(R0, 0x08000000)  returns 0x00 (0000ms, 15009ms total)
T3040 4702:514 JLINK_WriteReg(R1, 0x00000400)  returns 0x00 (0000ms, 15009ms total)
T3040 4702:514 JLINK_WriteReg(R2, 0x000000FF)  returns 0x00 (0001ms, 15010ms total)
T3040 4702:515 JLINK_WriteReg(R3, 0x00000000)  returns 0x00 (0000ms, 15010ms total)
T3040 4702:515 JLINK_WriteReg(R4, 0x00000000)  returns 0x00 (0000ms, 15010ms total)
T3040 4702:515 JLINK_WriteReg(R5, 0x00000000)  returns 0x00 (0000ms, 15010ms total)
T3040 4702:515 JLINK_WriteReg(R6, 0x00000000)  returns 0x00 (0000ms, 15010ms total)
T3040 4702:515 JLINK_WriteReg(R7, 0x00000000)  returns 0x00 (0000ms, 15010ms total)
T3040 4702:515 JLINK_WriteReg(R8, 0x00000000)  returns 0x00 (0000ms, 15010ms total)
T3040 4702:515 JLINK_WriteReg(R9, 0x20000160)  returns 0x00 (0000ms, 15010ms total)
T3040 4702:515 JLINK_WriteReg(R10, 0x00000000)  returns 0x00 (0000ms, 15010ms total)
T3040 4702:515 JLINK_WriteReg(R11, 0x00000000)  returns 0x00 (0000ms, 15010ms total)
T3040 4702:515 JLINK_WriteReg(R12, 0x00000000)  returns 0x00 (0000ms, 15010ms total)
T3040 4702:515 JLINK_WriteReg(R13 (SP), 0x20001000)  returns 0x00 (0000ms, 15010ms total)
T3040 4702:515 JLINK_WriteReg(R14, 0x20000001)  returns 0x00 (0000ms, 15010ms total)
T3040 4702:515 JLINK_WriteReg(R15 (PC), 0x200000B6)  returns 0x00 (0000ms, 15010ms total)
T3040 4702:515 JLINK_WriteReg(XPSR, 0x01000000)  returns 0x00 (0000ms, 15010ms total)
T3040 4702:515 JLINK_WriteReg(MSP, 0x20001000)  returns 0x00 (0000ms, 15010ms total)
T3040 4702:515 JLINK_WriteReg(PSP, 0x20001000)  returns 0x00 (0000ms, 15010ms total)
T3040 4702:515 JLINK_WriteReg(CFBP, 0x00000000)  returns 0x00 (0000ms, 15010ms total)
T3040 4702:515 JLINK_SetBPEx(Addr = 0x20000000, Type = 0xFFFFFFF2)  returns 0x00000003 (0000ms, 15010ms total)
T3040 4702:515 JLINK_Go() -- CPU_ReadMem(4 bytes @ 0xE0001000) (0004ms, 15014ms total)
T3040 4702:519 JLINK_IsHalted()  returns FALSE (0001ms, 15015ms total)
T3040 4702:572 JLINK_IsHalted() -- CPU_ReadMem(2 bytes @ 0x20000000)  returns TRUE (0004ms, 15018ms total)
T3040 4702:576 JLINK_ReadReg(R15 (PC))  returns 0x20000000 (0000ms, 15014ms total)
T3040 4702:576 JLINK_ClrBPEx(BPHandle = 0x00000003)  returns 0x00 (0000ms, 15014ms total)
T3040 4702:576 JLINK_ReadReg(R0)  returns 0x00000000 (0000ms, 15014ms total)
T3040 4702:576 JLINK_WriteReg(R0, 0x08000400)  returns 0x00 (0000ms, 15014ms total)
T3040 4702:576 JLINK_WriteReg(R1, 0x00000400)  returns 0x00 (0000ms, 15014ms total)
T3040 4702:576 JLINK_WriteReg(R2, 0x000000FF)  returns 0x00 (0000ms, 15014ms total)
T3040 4702:576 JLINK_WriteReg(R3, 0x00000000)  returns 0x00 (0000ms, 15014ms total)
T3040 4702:576 JLINK_WriteReg(R4, 0x00000000)  returns 0x00 (0000ms, 15014ms total)
T3040 4702:576 JLINK_WriteReg(R5, 0x00000000)  returns 0x00 (0001ms, 15015ms total)
T3040 4702:577 JLINK_WriteReg(R6, 0x00000000)  returns 0x00 (0000ms, 15015ms total)
T3040 4702:577 JLINK_WriteReg(R7, 0x00000000)  returns 0x00 (0000ms, 15015ms total)
T3040 4702:577 JLINK_WriteReg(R8, 0x00000000)  returns 0x00 (0000ms, 15015ms total)
T3040 4702:577 JLINK_WriteReg(R9, 0x20000160)  returns 0x00 (0000ms, 15015ms total)
T3040 4702:577 JLINK_WriteReg(R10, 0x00000000)  returns 0x00 (0000ms, 15015ms total)
T3040 4702:577 JLINK_WriteReg(R11, 0x00000000)  returns 0x00 (0000ms, 15015ms total)
T3040 4702:577 JLINK_WriteReg(R12, 0x00000000)  returns 0x00 (0000ms, 15015ms total)
T3040 4702:577 JLINK_WriteReg(R13 (SP), 0x20001000)  returns 0x00 (0000ms, 15015ms total)
T3040 4702:577 JLINK_WriteReg(R14, 0x20000001)  returns 0x00 (0000ms, 15015ms total)
T3040 4702:577 JLINK_WriteReg(R15 (PC), 0x20000020)  returns 0x00 (0000ms, 15015ms total)
T3040 4702:577 JLINK_WriteReg(XPSR, 0x01000000)  returns 0x00 (0000ms, 15015ms total)
T3040 4702:577 JLINK_WriteReg(MSP, 0x20001000)  returns 0x00 (0000ms, 15015ms total)
T3040 4702:577 JLINK_WriteReg(PSP, 0x20001000)  returns 0x00 (0000ms, 15015ms total)
T3040 4702:577 JLINK_WriteReg(CFBP, 0x00000000)  returns 0x00 (0000ms, 15015ms total)
T3040 4702:577 JLINK_SetBPEx(Addr = 0x20000000, Type = 0xFFFFFFF2)  returns 0x00000004 (0000ms, 15015ms total)
T3040 4702:577 JLINK_Go() -- CPU_ReadMem(4 bytes @ 0xE0001000) (0004ms, 15019ms total)
T3040 4702:582 JLINK_IsHalted() -- CPU_ReadMem(2 bytes @ 0x20000000)  returns TRUE (0004ms, 15023ms total)
T3040 4702:586 JLINK_ReadReg(R15 (PC))  returns 0x20000000 (0000ms, 15019ms total)
T3040 4702:586 JLINK_ClrBPEx(BPHandle = 0x00000004)  returns 0x00 (0000ms, 15019ms total)
T3040 4702:586 JLINK_ReadReg(R0)  returns 0x00000001 (0000ms, 15019ms total)
T3040 4702:586 JLINK_WriteReg(R0, 0x08000400)  returns 0x00 (0000ms, 15019ms total)
T3040 4702:586 JLINK_WriteReg(R1, 0x00000400)  returns 0x00 (0000ms, 15019ms total)
T3040 4702:586 JLINK_WriteReg(R2, 0x000000FF)  returns 0x00 (0000ms, 15019ms total)
T3040 4702:586 JLINK_WriteReg(R3, 0x00000000)  returns 0x00 (0000ms, 15019ms total)
T3040 4702:586 JLINK_WriteReg(R4, 0x00000000)  returns 0x00 (0000ms, 15019ms total)
T3040 4702:586 JLINK_WriteReg(R5, 0x00000000)  returns 0x00 (0000ms, 15019ms total)
T3040 4702:586 JLINK_WriteReg(R6, 0x00000000)  returns 0x00 (0000ms, 15019ms total)
T3040 4702:586 JLINK_WriteReg(R7, 0x00000000)  returns 0x00 (0000ms, 15019ms total)
T3040 4702:586 JLINK_WriteReg(R8, 0x00000000)  returns 0x00 (0000ms, 15019ms total)
T3040 4702:586 JLINK_WriteReg(R9, 0x20000160)  returns 0x00 (0000ms, 15019ms total)
T3040 4702:586 JLINK_WriteReg(R10, 0x00000000)  returns 0x00 (0000ms, 15019ms total)
T3040 4702:586 JLINK_WriteReg(R11, 0x00000000)  returns 0x00 (0000ms, 15019ms total)
T3040 4702:586 JLINK_WriteReg(R12, 0x00000000)  returns 0x00 (0000ms, 15019ms total)
T3040 4702:586 JLINK_WriteReg(R13 (SP), 0x20001000)  returns 0x00 (0000ms, 15019ms total)
T3040 4702:586 JLINK_WriteReg(R14, 0x20000001)  returns 0x00 (0000ms, 15019ms total)
T3040 4702:586 JLINK_WriteReg(R15 (PC), 0x200000B6)  returns 0x00 (0000ms, 15019ms total)
T3040 4702:586 JLINK_WriteReg(XPSR, 0x01000000)  returns 0x00 (0000ms, 15019ms total)
T3040 4702:586 JLINK_WriteReg(MSP, 0x20001000)  returns 0x00 (0000ms, 15019ms total)
T3040 4702:586 JLINK_WriteReg(PSP, 0x20001000)  returns 0x00 (0000ms, 15019ms total)
T3040 4702:586 JLINK_WriteReg(CFBP, 0x00000000)  returns 0x00 (0000ms, 15019ms total)
T3040 4702:586 JLINK_SetBPEx(Addr = 0x20000000, Type = 0xFFFFFFF2)  returns 0x00000005 (0000ms, 15019ms total)
T3040 4702:586 JLINK_Go() -- CPU_ReadMem(4 bytes @ 0xE0001000) (0005ms, 15024ms total)
T3040 4702:591 JLINK_IsHalted()  returns FALSE (0000ms, 15024ms total)
T3040 4702:595 JLINK_IsHalted() -- CPU_ReadMem(2 bytes @ 0x20000000)  returns TRUE (0004ms, 15028ms total)
T3040 4702:599 JLINK_ReadReg(R15 (PC))  returns 0x20000000 (0000ms, 15024ms total)
T3040 4702:599 JLINK_ClrBPEx(BPHandle = 0x00000005)  returns 0x00 (0000ms, 15024ms total)
T3040 4702:599 JLINK_ReadReg(R0)  returns 0x00000000 (0000ms, 15024ms total)
T3040 4702:600 JLINK_WriteReg(R0, 0x08000800)  returns 0x00 (0000ms, 15024ms total)
T3040 4702:600 JLINK_WriteReg(R1, 0x00000400)  returns 0x00 (0000ms, 15024ms total)
T3040 4702:600 JLINK_WriteReg(R2, 0x000000FF)  returns 0x00 (0000ms, 15024ms total)
T3040 4702:600 JLINK_WriteReg(R3, 0x00000000)  returns 0x00 (0000ms, 15024ms total)
T3040 4702:600 JLINK_WriteReg(R4, 0x00000000)  returns 0x00 (0000ms, 15024ms total)
T3040 4702:600 JLINK_WriteReg(R5, 0x00000000)  returns 0x00 (0000ms, 15024ms total)
T3040 4702:600 JLINK_WriteReg(R6, 0x00000000)  returns 0x00 (0000ms, 15024ms total)
T3040 4702:600 JLINK_WriteReg(R7, 0x00000000)  returns 0x00 (0000ms, 15024ms total)
T3040 4702:600 JLINK_WriteReg(R8, 0x00000000)  returns 0x00 (0000ms, 15024ms total)
T3040 4702:600 JLINK_WriteReg(R9, 0x20000160)  returns 0x00 (0000ms, 15024ms total)
T3040 4702:600 JLINK_WriteReg(R10, 0x00000000)  returns 0x00 (0000ms, 15024ms total)
T3040 4702:600 JLINK_WriteReg(R11, 0x00000000)  returns 0x00 (0000ms, 15024ms total)
T3040 4702:600 JLINK_WriteReg(R12, 0x00000000)  returns 0x00 (0000ms, 15024ms total)
T3040 4702:600 JLINK_WriteReg(R13 (SP), 0x20001000)  returns 0x00 (0000ms, 15024ms total)
T3040 4702:600 JLINK_WriteReg(R14, 0x20000001)  returns 0x00 (0000ms, 15024ms total)
T3040 4702:600 JLINK_WriteReg(R15 (PC), 0x20000020)  returns 0x00 (0000ms, 15024ms total)
T3040 4702:600 JLINK_WriteReg(XPSR, 0x01000000)  returns 0x00 (0000ms, 15024ms total)
T3040 4702:600 JLINK_WriteReg(MSP, 0x20001000)  returns 0x00 (0000ms, 15024ms total)
T3040 4702:600 JLINK_WriteReg(PSP, 0x20001000)  returns 0x00 (0000ms, 15024ms total)
T3040 4702:600 JLINK_WriteReg(CFBP, 0x00000000)  returns 0x00 (0000ms, 15024ms total)
T3040 4702:600 JLINK_SetBPEx(Addr = 0x20000000, Type = 0xFFFFFFF2)  returns 0x00000006 (0000ms, 15024ms total)
T3040 4702:600 JLINK_Go() -- CPU_ReadMem(4 bytes @ 0xE0001000) (0004ms, 15028ms total)
T3040 4702:604 JLINK_IsHalted() -- CPU_ReadMem(2 bytes @ 0x20000000)  returns TRUE (0006ms, 15034ms total)
T3040 4702:610 JLINK_ReadReg(R15 (PC))  returns 0x20000000 (0000ms, 15028ms total)
T3040 4702:610 JLINK_ClrBPEx(BPHandle = 0x00000006)  returns 0x00 (0000ms, 15028ms total)
T3040 4702:610 JLINK_ReadReg(R0)  returns 0x00000001 (0000ms, 15028ms total)
T3040 4702:610 JLINK_WriteReg(R0, 0x08000800)  returns 0x00 (0000ms, 15028ms total)
T3040 4702:610 JLINK_WriteReg(R1, 0x00000400)  returns 0x00 (0000ms, 15028ms total)
T3040 4702:610 JLINK_WriteReg(R2, 0x000000FF)  returns 0x00 (0000ms, 15028ms total)
T3040 4702:610 JLINK_WriteReg(R3, 0x00000000)  returns 0x00 (0000ms, 15028ms total)
T3040 4702:610 JLINK_WriteReg(R4, 0x00000000)  returns 0x00 (0000ms, 15028ms total)
T3040 4702:610 JLINK_WriteReg(R5, 0x00000000)  returns 0x00 (0000ms, 15028ms total)
T3040 4702:610 JLINK_WriteReg(R6, 0x00000000)  returns 0x00 (0000ms, 15028ms total)
T3040 4702:610 JLINK_WriteReg(R7, 0x00000000)  returns 0x00 (0000ms, 15028ms total)
T3040 4702:610 JLINK_WriteReg(R8, 0x00000000)  returns 0x00 (0000ms, 15028ms total)
T3040 4702:610 JLINK_WriteReg(R9, 0x20000160)  returns 0x00 (0000ms, 15028ms total)
T3040 4702:610 JLINK_WriteReg(R10, 0x00000000)  returns 0x00 (0000ms, 15028ms total)
T3040 4702:610 JLINK_WriteReg(R11, 0x00000000)  returns 0x00 (0000ms, 15028ms total)
T3040 4702:610 JLINK_WriteReg(R12, 0x00000000)  returns 0x00 (0000ms, 15028ms total)
T3040 4702:610 JLINK_WriteReg(R13 (SP), 0x20001000)  returns 0x00 (0000ms, 15028ms total)
T3040 4702:610 JLINK_WriteReg(R14, 0x20000001)  returns 0x00 (0000ms, 15028ms total)
T3040 4702:610 JLINK_WriteReg(R15 (PC), 0x200000B6)  returns 0x00 (0000ms, 15028ms total)
T3040 4702:610 JLINK_WriteReg(XPSR, 0x01000000)  returns 0x00 (0000ms, 15028ms total)
T3040 4702:610 JLINK_WriteReg(MSP, 0x20001000)  returns 0x00 (0000ms, 15028ms total)
T3040 4702:610 JLINK_WriteReg(PSP, 0x20001000)  returns 0x00 (0000ms, 15028ms total)
T3040 4702:610 JLINK_WriteReg(CFBP, 0x00000000)  returns 0x00 (0000ms, 15028ms total)
T3040 4702:610 JLINK_SetBPEx(Addr = 0x20000000, Type = 0xFFFFFFF2)  returns 0x00000007 (0000ms, 15028ms total)
T3040 4702:610 JLINK_Go() -- CPU_ReadMem(4 bytes @ 0xE0001000) (0005ms, 15033ms total)
T3040 4702:615 JLINK_IsHalted()  returns FALSE (0000ms, 15033ms total)
T3040 4702:619 JLINK_IsHalted() -- CPU_ReadMem(2 bytes @ 0x20000000)  returns TRUE (0004ms, 15037ms total)
T3040 4702:623 JLINK_ReadReg(R15 (PC))  returns 0x20000000 (0000ms, 15033ms total)
T3040 4702:623 JLINK_ClrBPEx(BPHandle = 0x00000007)  returns 0x00 (0000ms, 15033ms total)
T3040 4702:623 JLINK_ReadReg(R0)  returns 0x00000000 (0000ms, 15033ms total)
T3040 4702:624 JLINK_WriteReg(R0, 0x08000C00)  returns 0x00 (0000ms, 15033ms total)
T3040 4702:624 JLINK_WriteReg(R1, 0x00000400)  returns 0x00 (0000ms, 15033ms total)
T3040 4702:624 JLINK_WriteReg(R2, 0x000000FF)  returns 0x00 (0000ms, 15033ms total)
T3040 4702:624 JLINK_WriteReg(R3, 0x00000000)  returns 0x00 (0000ms, 15033ms total)
T3040 4702:624 JLINK_WriteReg(R4, 0x00000000)  returns 0x00 (0000ms, 15033ms total)
T3040 4702:624 JLINK_WriteReg(R5, 0x00000000)  returns 0x00 (0000ms, 15033ms total)
T3040 4702:624 JLINK_WriteReg(R6, 0x00000000)  returns 0x00 (0000ms, 15033ms total)
T3040 4702:624 JLINK_WriteReg(R7, 0x00000000)  returns 0x00 (0000ms, 15033ms total)
T3040 4702:624 JLINK_WriteReg(R8, 0x00000000)  returns 0x00 (0000ms, 15033ms total)
T3040 4702:624 JLINK_WriteReg(R9, 0x20000160)  returns 0x00 (0000ms, 15033ms total)
T3040 4702:624 JLINK_WriteReg(R10, 0x00000000)  returns 0x00 (0000ms, 15033ms total)
T3040 4702:624 JLINK_WriteReg(R11, 0x00000000)  returns 0x00 (0000ms, 15033ms total)
T3040 4702:624 JLINK_WriteReg(R12, 0x00000000)  returns 0x00 (0000ms, 15033ms total)
T3040 4702:624 JLINK_WriteReg(R13 (SP), 0x20001000)  returns 0x00 (0000ms, 15033ms total)
T3040 4702:624 JLINK_WriteReg(R14, 0x20000001)  returns 0x00 (0000ms, 15033ms total)
T3040 4702:624 JLINK_WriteReg(R15 (PC), 0x20000020)  returns 0x00 (0000ms, 15033ms total)
T3040 4702:624 JLINK_WriteReg(XPSR, 0x01000000)  returns 0x00 (0000ms, 15033ms total)
T3040 4702:624 JLINK_WriteReg(MSP, 0x20001000)  returns 0x00 (0000ms, 15033ms total)
T3040 4702:624 JLINK_WriteReg(PSP, 0x20001000)  returns 0x00 (0000ms, 15033ms total)
T3040 4702:624 JLINK_WriteReg(CFBP, 0x00000000)  returns 0x00 (0000ms, 15033ms total)
T3040 4702:624 JLINK_SetBPEx(Addr = 0x20000000, Type = 0xFFFFFFF2)  returns 0x00000008 (0000ms, 15033ms total)
T3040 4702:624 JLINK_Go() -- CPU_ReadMem(4 bytes @ 0xE0001000) (0004ms, 15037ms total)
T3040 4702:628 JLINK_IsHalted() -- CPU_ReadMem(2 bytes @ 0x20000000)  returns TRUE (0004ms, 15041ms total)
T3040 4702:632 JLINK_ReadReg(R15 (PC))  returns 0x20000000 (0000ms, 15037ms total)
T3040 4702:632 JLINK_ClrBPEx(BPHandle = 0x00000008)  returns 0x00 (0000ms, 15037ms total)
T3040 4702:632 JLINK_ReadReg(R0)  returns 0x00000001 (0000ms, 15037ms total)
T3040 4702:632 JLINK_WriteReg(R0, 0x08000C00)  returns 0x00 (0000ms, 15037ms total)
T3040 4702:632 JLINK_WriteReg(R1, 0x00000400)  returns 0x00 (0000ms, 15037ms total)
T3040 4702:632 JLINK_WriteReg(R2, 0x000000FF)  returns 0x00 (0000ms, 15037ms total)
T3040 4702:632 JLINK_WriteReg(R3, 0x00000000)  returns 0x00 (0000ms, 15037ms total)
T3040 4702:632 JLINK_WriteReg(R4, 0x00000000)  returns 0x00 (0000ms, 15037ms total)
T3040 4702:633 JLINK_WriteReg(R5, 0x00000000)  returns 0x00 (0000ms, 15037ms total)
T3040 4702:633 JLINK_WriteReg(R6, 0x00000000)  returns 0x00 (0000ms, 15037ms total)
T3040 4702:633 JLINK_WriteReg(R7, 0x00000000)  returns 0x00 (0000ms, 15037ms total)
T3040 4702:633 JLINK_WriteReg(R8, 0x00000000)  returns 0x00 (0000ms, 15037ms total)
T3040 4702:633 JLINK_WriteReg(R9, 0x20000160)  returns 0x00 (0000ms, 15037ms total)
T3040 4702:633 JLINK_WriteReg(R10, 0x00000000)  returns 0x00 (0000ms, 15037ms total)
T3040 4702:633 JLINK_WriteReg(R11, 0x00000000)  returns 0x00 (0000ms, 15037ms total)
T3040 4702:633 JLINK_WriteReg(R12, 0x00000000)  returns 0x00 (0000ms, 15037ms total)
T3040 4702:633 JLINK_WriteReg(R13 (SP), 0x20001000)  returns 0x00 (0000ms, 15037ms total)
T3040 4702:633 JLINK_WriteReg(R14, 0x20000001)  returns 0x00 (0000ms, 15037ms total)
T3040 4702:633 JLINK_WriteReg(R15 (PC), 0x200000B6)  returns 0x00 (0000ms, 15037ms total)
T3040 4702:633 JLINK_WriteReg(XPSR, 0x01000000)  returns 0x00 (0000ms, 15037ms total)
T3040 4702:633 JLINK_WriteReg(MSP, 0x20001000)  returns 0x00 (0000ms, 15037ms total)
T3040 4702:633 JLINK_WriteReg(PSP, 0x20001000)  returns 0x00 (0000ms, 15037ms total)
T3040 4702:633 JLINK_WriteReg(CFBP, 0x00000000)  returns 0x00 (0000ms, 15037ms total)
T3040 4702:633 JLINK_SetBPEx(Addr = 0x20000000, Type = 0xFFFFFFF2)  returns 0x00000009 (0000ms, 15037ms total)
T3040 4702:633 JLINK_Go() -- CPU_ReadMem(4 bytes @ 0xE0001000) (0003ms, 15040ms total)
T3040 4702:636 JLINK_IsHalted()  returns FALSE (0001ms, 15041ms total)
T3040 4702:639 JLINK_IsHalted() -- CPU_ReadMem(2 bytes @ 0x20000000)  returns TRUE (0004ms, 15044ms total)
T3040 4702:643 JLINK_ReadReg(R15 (PC))  returns 0x20000000 (0000ms, 15040ms total)
T3040 4702:643 JLINK_ClrBPEx(BPHandle = 0x00000009)  returns 0x00 (0000ms, 15040ms total)
T3040 4702:643 JLINK_ReadReg(R0)  returns 0x00000000 (0000ms, 15040ms total)
T3040 4702:644 JLINK_WriteReg(R0, 0x00000001)  returns 0x00 (0000ms, 15040ms total)
T3040 4702:644 JLINK_WriteReg(R1, 0x00000400)  returns 0x00 (0000ms, 15040ms total)
T3040 4702:645 JLINK_WriteReg(R2, 0x000000FF)  returns 0x00 (0000ms, 15040ms total)
T3040 4702:645 JLINK_WriteReg(R3, 0x00000000)  returns 0x00 (0000ms, 15040ms total)
T3040 4702:645 JLINK_WriteReg(R4, 0x00000000)  returns 0x00 (0000ms, 15040ms total)
T3040 4702:645 JLINK_WriteReg(R5, 0x00000000)  returns 0x00 (0000ms, 15040ms total)
T3040 4702:645 JLINK_WriteReg(R6, 0x00000000)  returns 0x00 (0000ms, 15040ms total)
T3040 4702:645 JLINK_WriteReg(R7, 0x00000000)  returns 0x00 (0000ms, 15040ms total)
T3040 4702:645 JLINK_WriteReg(R8, 0x00000000)  returns 0x00 (0000ms, 15040ms total)
T3040 4702:645 JLINK_WriteReg(R9, 0x20000160)  returns 0x00 (0000ms, 15040ms total)
T3040 4702:645 JLINK_WriteReg(R10, 0x00000000)  returns 0x00 (0000ms, 15040ms total)
T3040 4702:645 JLINK_WriteReg(R11, 0x00000000)  returns 0x00 (0000ms, 15040ms total)
T3040 4702:645 JLINK_WriteReg(R12, 0x00000000)  returns 0x00 (0000ms, 15040ms total)
T3040 4702:645 JLINK_WriteReg(R13 (SP), 0x20001000)  returns 0x00 (0000ms, 15040ms total)
T3040 4702:645 JLINK_WriteReg(R14, 0x20000001)  returns 0x00 (0000ms, 15040ms total)
T3040 4702:645 JLINK_WriteReg(R15 (PC), 0x2000006A)  returns 0x00 (0001ms, 15041ms total)
T3040 4702:646 JLINK_WriteReg(XPSR, 0x01000000)  returns 0x00 (0000ms, 15041ms total)
T3040 4702:646 JLINK_WriteReg(MSP, 0x20001000)  returns 0x00 (0000ms, 15041ms total)
T3040 4702:646 JLINK_WriteReg(PSP, 0x20001000)  returns 0x00 (0000ms, 15041ms total)
T3040 4702:646 JLINK_WriteReg(CFBP, 0x00000000)  returns 0x00 (0000ms, 15041ms total)
T3040 4702:646 JLINK_SetBPEx(Addr = 0x20000000, Type = 0xFFFFFFF2)  returns 0x0000000A (0000ms, 15041ms total)
T3040 4702:646 JLINK_Go() -- CPU_ReadMem(4 bytes @ 0xE0001000) (0005ms, 15046ms total)
T3040 4702:651 JLINK_IsHalted() -- CPU_ReadMem(2 bytes @ 0x20000000)  returns TRUE (0005ms, 15051ms total)
T3040 4702:656 JLINK_ReadReg(R15 (PC))  returns 0x20000000 (0000ms, 15046ms total)
T3040 4702:656 JLINK_ClrBPEx(BPHandle = 0x0000000A)  returns 0x00 (0000ms, 15046ms total)
T3040 4702:656 JLINK_ReadReg(R0)  returns 0x00000000 (0000ms, 15046ms total)
T3040 4702:717 JLINK_WriteMem(0x20000000, 0x0164 Bytes, ...) - Data: 00 BE 0A E0 0D 78 2D 06 68 40 08 24 40 00 00 D3 ... -- CPU_WriteMem(356 bytes @ 0x20000000)  returns 0x164 (0005ms, 15051ms total)
T3040 4702:722 JLINK_WriteReg(R0, 0x08000000)  returns 0x00 (0000ms, 15051ms total)
T3040 4702:722 JLINK_WriteReg(R1, 0x00B71B00)  returns 0x00 (0000ms, 15051ms total)
T3040 4702:722 JLINK_WriteReg(R2, 0x00000002)  returns 0x00 (0000ms, 15051ms total)
T3040 4702:722 JLINK_WriteReg(R3, 0x00000000)  returns 0x00 (0000ms, 15051ms total)
T3040 4702:722 JLINK_WriteReg(R4, 0x00000000)  returns 0x00 (0000ms, 15051ms total)
T3040 4702:722 JLINK_WriteReg(R5, 0x00000000)  returns 0x00 (0000ms, 15051ms total)
T3040 4702:722 JLINK_WriteReg(R6, 0x00000000)  returns 0x00 (0000ms, 15051ms total)
T3040 4702:722 JLINK_WriteReg(R7, 0x00000000)  returns 0x00 (0000ms, 15051ms total)
T3040 4702:722 JLINK_WriteReg(R8, 0x00000000)  returns 0x00 (0000ms, 15051ms total)
T3040 4702:722 JLINK_WriteReg(R9, 0x20000160)  returns 0x00 (0000ms, 15051ms total)
T3040 4702:722 JLINK_WriteReg(R10, 0x00000000)  returns 0x00 (0000ms, 15051ms total)
T3040 4702:722 JLINK_WriteReg(R11, 0x00000000)  returns 0x00 (0000ms, 15051ms total)
T3040 4702:722 JLINK_WriteReg(R12, 0x00000000)  returns 0x00 (0000ms, 15051ms total)
T3040 4702:722 JLINK_WriteReg(R13 (SP), 0x20001000)  returns 0x00 (0000ms, 15051ms total)
T3040 4702:722 JLINK_WriteReg(R14, 0x20000001)  returns 0x00 (0000ms, 15051ms total)
T3040 4702:722 JLINK_WriteReg(R15 (PC), 0x20000038)  returns 0x00 (0000ms, 15051ms total)
T3040 4702:722 JLINK_WriteReg(XPSR, 0x01000000)  returns 0x00 (0000ms, 15051ms total)
T3040 4702:722 JLINK_WriteReg(MSP, 0x20001000)  returns 0x00 (0000ms, 15051ms total)
T3040 4702:722 JLINK_WriteReg(PSP, 0x20001000)  returns 0x00 (0000ms, 15051ms total)
T3040 4702:722 JLINK_WriteReg(CFBP, 0x00000000)  returns 0x00 (0000ms, 15051ms total)
T3040 4702:722 JLINK_SetBPEx(Addr = 0x20000000, Type = 0xFFFFFFF2) -- CPU_ReadMem(2 bytes @ 0x20000000)  returns 0x0000000B (0001ms, 15052ms total)
T3040 4702:723 JLINK_Go() -- CPU_WriteMem(2 bytes @ 0x20000000) -- CPU_ReadMem(4 bytes @ 0xE0001000) (0006ms, 15058ms total)
T3040 4702:729 JLINK_IsHalted() -- CPU_ReadMem(2 bytes @ 0x20000000)  returns TRUE (0003ms, 15061ms total)
T3040 4702:732 JLINK_ReadReg(R15 (PC))  returns 0x20000000 (0000ms, 15058ms total)
T3040 4702:732 JLINK_ClrBPEx(BPHandle = 0x0000000B)  returns 0x00 (0000ms, 15058ms total)
T3040 4702:732 JLINK_ReadReg(R0)  returns 0x00000000 (0000ms, 15058ms total)
T3040 4702:733 JLINK_WriteMem(0x20000164, 0x029C Bytes, ...) - Data: 98 06 00 20 CD 01 00 08 F1 05 00 08 9D 03 00 08 ... -- CPU_WriteMem(668 bytes @ 0x20000164)  returns 0x29C (0009ms, 15067ms total)
T3040 4702:742 JLINK_WriteMem(0x20000400, 0x0164 Bytes, ...) - Data: 91 F8 03 C0 0C F0 10 0C BC F1 00 0F 03 D0 91 F8 ... -- CPU_WriteMem(356 bytes @ 0x20000400)  returns 0x164 (0004ms, 15071ms total)
T3040 4702:746 JLINK_WriteReg(R0, 0x08000000)  returns 0x00 (0000ms, 15071ms total)
T3040 4702:746 JLINK_WriteReg(R1, 0x00000400)  returns 0x00 (0000ms, 15071ms total)
T3040 4702:746 JLINK_WriteReg(R2, 0x20000164)  returns 0x00 (0000ms, 15071ms total)
T3040 4702:747 JLINK_WriteReg(R3, 0x00000000)  returns 0x00 (0000ms, 15071ms total)
T3040 4702:747 JLINK_WriteReg(R4, 0x00000000)  returns 0x00 (0000ms, 15071ms total)
T3040 4702:747 JLINK_WriteReg(R5, 0x00000000)  returns 0x00 (0000ms, 15071ms total)
T3040 4702:747 JLINK_WriteReg(R6, 0x00000000)  returns 0x00 (0000ms, 15071ms total)
T3040 4702:747 JLINK_WriteReg(R7, 0x00000000)  returns 0x00 (0000ms, 15071ms total)
T3040 4702:747 JLINK_WriteReg(R8, 0x00000000)  returns 0x00 (0000ms, 15071ms total)
T3040 4702:747 JLINK_WriteReg(R9, 0x20000160)  returns 0x00 (0000ms, 15071ms total)
T3040 4702:747 JLINK_WriteReg(R10, 0x00000000)  returns 0x00 (0000ms, 15071ms total)
T3040 4702:747 JLINK_WriteReg(R11, 0x00000000)  returns 0x00 (0000ms, 15071ms total)
T3040 4702:747 JLINK_WriteReg(R12, 0x00000000)  returns 0x00 (0000ms, 15071ms total)
T3040 4702:747 JLINK_WriteReg(R13 (SP), 0x20001000)  returns 0x00 (0000ms, 15071ms total)
T3040 4702:747 JLINK_WriteReg(R14, 0x20000001)  returns 0x00 (0000ms, 15071ms total)
T3040 4702:747 JLINK_WriteReg(R15 (PC), 0x200000F4)  returns 0x00 (0000ms, 15071ms total)
T3040 4702:747 JLINK_WriteReg(XPSR, 0x01000000)  returns 0x00 (0000ms, 15071ms total)
T3040 4702:747 JLINK_WriteReg(MSP, 0x20001000)  returns 0x00 (0000ms, 15071ms total)
T3040 4702:747 JLINK_WriteReg(PSP, 0x20001000)  returns 0x00 (0000ms, 15071ms total)
T3040 4702:747 JLINK_WriteReg(CFBP, 0x00000000)  returns 0x00 (0000ms, 15071ms total)
T3040 4702:747 JLINK_SetBPEx(Addr = 0x20000000, Type = 0xFFFFFFF2)  returns 0x0000000C (0000ms, 15071ms total)
T3040 4702:747 JLINK_Go() -- CPU_ReadMem(4 bytes @ 0xE0001000) (0004ms, 15075ms total)
T3040 4702:752 JLINK_IsHalted()  returns FALSE (0001ms, 15077ms total)
T3040 4702:757 JLINK_IsHalted()  returns FALSE (0000ms, 15076ms total)
T3040 4702:759 JLINK_IsHalted()  returns FALSE (0000ms, 15076ms total)
T3040 4702:761 JLINK_IsHalted()  returns FALSE (0000ms, 15076ms total)
T3040 4702:763 JLINK_IsHalted()  returns FALSE (0001ms, 15077ms total)
T3040 4702:766 JLINK_IsHalted() -- CPU_ReadMem(2 bytes @ 0x20000000)  returns TRUE (0003ms, 15079ms total)
T3040 4702:769 JLINK_ReadReg(R15 (PC))  returns 0x20000000 (0000ms, 15076ms total)
T3040 4702:769 JLINK_ClrBPEx(BPHandle = 0x0000000C)  returns 0x00 (0000ms, 15076ms total)
T3040 4702:769 JLINK_ReadReg(R0)  returns 0x00000000 (0000ms, 15076ms total)
T3040 4702:770 JLINK_WriteMem(0x20000164, 0x029C Bytes, ...) - Data: AD F8 02 00 69 46 4F F0 80 40 00 F0 73 FB 01 22 ... -- CPU_WriteMem(668 bytes @ 0x20000164)  returns 0x29C (0009ms, 15085ms total)
T3040 4702:779 JLINK_WriteMem(0x20000400, 0x0164 Bytes, ...) - Data: 29 B1 06 4A 92 69 02 43 04 4B 9A 61 04 E0 03 4A ... -- CPU_WriteMem(356 bytes @ 0x20000400)  returns 0x164 (0004ms, 15089ms total)
T3040 4702:783 JLINK_WriteReg(R0, 0x08000400)  returns 0x00 (0000ms, 15089ms total)
T3040 4702:783 JLINK_WriteReg(R1, 0x00000400)  returns 0x00 (0000ms, 15089ms total)
T3040 4702:783 JLINK_WriteReg(R2, 0x20000164)  returns 0x00 (0000ms, 15089ms total)
T3040 4702:783 JLINK_WriteReg(R3, 0x00000000)  returns 0x00 (0000ms, 15089ms total)
T3040 4702:784 JLINK_WriteReg(R4, 0x00000000)  returns 0x00 (0000ms, 15089ms total)
T3040 4702:784 JLINK_WriteReg(R5, 0x00000000)  returns 0x00 (0000ms, 15089ms total)
T3040 4702:784 JLINK_WriteReg(R6, 0x00000000)  returns 0x00 (0000ms, 15089ms total)
T3040 4702:784 JLINK_WriteReg(R7, 0x00000000)  returns 0x00 (0000ms, 15089ms total)
T3040 4702:784 JLINK_WriteReg(R8, 0x00000000)  returns 0x00 (0000ms, 15089ms total)
T3040 4702:784 JLINK_WriteReg(R9, 0x20000160)  returns 0x00 (0000ms, 15089ms total)
T3040 4702:784 JLINK_WriteReg(R10, 0x00000000)  returns 0x00 (0000ms, 15089ms total)
T3040 4702:784 JLINK_WriteReg(R11, 0x00000000)  returns 0x00 (0000ms, 15089ms total)
T3040 4702:784 JLINK_WriteReg(R12, 0x00000000)  returns 0x00 (0000ms, 15089ms total)
T3040 4702:784 JLINK_WriteReg(R13 (SP), 0x20001000)  returns 0x00 (0000ms, 15089ms total)
T3040 4702:784 JLINK_WriteReg(R14, 0x20000001)  returns 0x00 (0000ms, 15089ms total)
T3040 4702:784 JLINK_WriteReg(R15 (PC), 0x200000F4)  returns 0x00 (0000ms, 15089ms total)
T3040 4702:784 JLINK_WriteReg(XPSR, 0x01000000)  returns 0x00 (0000ms, 15089ms total)
T3040 4702:784 JLINK_WriteReg(MSP, 0x20001000)  returns 0x00 (0000ms, 15089ms total)
T3040 4702:784 JLINK_WriteReg(PSP, 0x20001000)  returns 0x00 (0000ms, 15089ms total)
T3040 4702:784 JLINK_WriteReg(CFBP, 0x00000000)  returns 0x00 (0000ms, 15089ms total)
T3040 4702:784 JLINK_SetBPEx(Addr = 0x20000000, Type = 0xFFFFFFF2)  returns 0x0000000D (0000ms, 15089ms total)
T3040 4702:784 JLINK_Go() -- CPU_ReadMem(4 bytes @ 0xE0001000) (0006ms, 15095ms total)
T3040 4702:790 JLINK_IsHalted()  returns FALSE (0000ms, 15095ms total)
T3040 4702:792 JLINK_IsHalted()  returns FALSE (0001ms, 15096ms total)
T3040 4702:794 JLINK_IsHalted()  returns FALSE (0000ms, 15095ms total)
T3040 4702:796 JLINK_IsHalted()  returns FALSE (0000ms, 15095ms total)
T3040 4702:798 JLINK_IsHalted()  returns FALSE (0000ms, 15095ms total)
T3040 4702:800 JLINK_IsHalted()  returns FALSE (0000ms, 15095ms total)
T3040 4702:802 JLINK_IsHalted() -- CPU_ReadMem(2 bytes @ 0x20000000)  returns TRUE (0004ms, 15099ms total)
T3040 4702:806 JLINK_ReadReg(R15 (PC))  returns 0x20000000 (0001ms, 15096ms total)
T3040 4702:807 JLINK_ClrBPEx(BPHandle = 0x0000000D)  returns 0x00 (0000ms, 15096ms total)
T3040 4702:807 JLINK_ReadReg(R0)  returns 0x00000000 (0000ms, 15096ms total)
T3040 4702:808 JLINK_WriteMem(0x20000164, 0x029C Bytes, ...) - Data: 00 68 40 F0 02 00 08 60 1A 48 40 68 19 49 48 60 ... -- CPU_WriteMem(668 bytes @ 0x20000164)  returns 0x29C (0008ms, 15104ms total)
T3040 4702:816 JLINK_WriteMem(0x20000400, 0x0164 Bytes, ...) - Data: 2A 43 4F F6 FF 35 2B 40 4F F2 FF 75 2B 40 8D 89 ... -- CPU_WriteMem(356 bytes @ 0x20000400)  returns 0x164 (0006ms, 15110ms total)
T3040 4702:822 JLINK_WriteReg(R0, 0x08000800)  returns 0x00 (0000ms, 15110ms total)
T3040 4702:822 JLINK_WriteReg(R1, 0x00000400)  returns 0x00 (0000ms, 15110ms total)
T3040 4702:822 JLINK_WriteReg(R2, 0x20000164)  returns 0x00 (0000ms, 15110ms total)
T3040 4702:822 JLINK_WriteReg(R3, 0x00000000)  returns 0x00 (0000ms, 15110ms total)
T3040 4702:822 JLINK_WriteReg(R4, 0x00000000)  returns 0x00 (0000ms, 15110ms total)
T3040 4702:822 JLINK_WriteReg(R5, 0x00000000)  returns 0x00 (0000ms, 15110ms total)
T3040 4702:822 JLINK_WriteReg(R6, 0x00000000)  returns 0x00 (0000ms, 15110ms total)
T3040 4702:822 JLINK_WriteReg(R7, 0x00000000)  returns 0x00 (0000ms, 15110ms total)
T3040 4702:822 JLINK_WriteReg(R8, 0x00000000)  returns 0x00 (0000ms, 15110ms total)
T3040 4702:822 JLINK_WriteReg(R9, 0x20000160)  returns 0x00 (0000ms, 15110ms total)
T3040 4702:822 JLINK_WriteReg(R10, 0x00000000)  returns 0x00 (0000ms, 15110ms total)
T3040 4702:822 JLINK_WriteReg(R11, 0x00000000)  returns 0x00 (0000ms, 15110ms total)
T3040 4702:822 JLINK_WriteReg(R12, 0x00000000)  returns 0x00 (0000ms, 15110ms total)
T3040 4702:822 JLINK_WriteReg(R13 (SP), 0x20001000)  returns 0x00 (0000ms, 15110ms total)
T3040 4702:822 JLINK_WriteReg(R14, 0x20000001)  returns 0x00 (0000ms, 15110ms total)
T3040 4702:822 JLINK_WriteReg(R15 (PC), 0x200000F4)  returns 0x00 (0000ms, 15110ms total)
T3040 4702:822 JLINK_WriteReg(XPSR, 0x01000000)  returns 0x00 (0000ms, 15110ms total)
T3040 4702:822 JLINK_WriteReg(MSP, 0x20001000)  returns 0x00 (0000ms, 15110ms total)
T3040 4702:822 JLINK_WriteReg(PSP, 0x20001000)  returns 0x00 (0000ms, 15110ms total)
T3040 4702:822 JLINK_WriteReg(CFBP, 0x00000000)  returns 0x00 (0000ms, 15110ms total)
T3040 4702:822 JLINK_SetBPEx(Addr = 0x20000000, Type = 0xFFFFFFF2)  returns 0x0000000E (0000ms, 15110ms total)
T3040 4702:822 JLINK_Go() -- CPU_ReadMem(4 bytes @ 0xE0001000) (0004ms, 15114ms total)
T3040 4702:826 JLINK_IsHalted()  returns FALSE (0001ms, 15115ms total)
T3040 4702:830 JLINK_IsHalted()  returns FALSE (0000ms, 15114ms total)
T3040 4702:832 JLINK_IsHalted()  returns FALSE (0000ms, 15114ms total)
T3040 4702:834 JLINK_IsHalted()  returns FALSE (0000ms, 15114ms total)
T3040 4702:836 JLINK_IsHalted()  returns FALSE (0000ms, 15114ms total)
T3040 4702:838 JLINK_IsHalted()  returns FALSE (0000ms, 15114ms total)
T3040 4702:840 JLINK_IsHalted() -- CPU_ReadMem(2 bytes @ 0x20000000)  returns TRUE (0004ms, 15118ms total)
T3040 4702:844 JLINK_ReadReg(R15 (PC))  returns 0x20000000 (0000ms, 15114ms total)
T3040 4702:844 JLINK_ClrBPEx(BPHandle = 0x0000000E)  returns 0x00 (0000ms, 15114ms total)
T3040 4702:844 JLINK_ReadReg(R0)  returns 0x00000000 (0000ms, 15114ms total)
T3040 4702:844 JLINK_WriteMem(0x20000164, 0x029C Bytes, ...) - Data: 4F F4 FA 71 06 48 FF F7 70 FF 42 F2 10 71 04 48 ... -- CPU_WriteMem(668 bytes @ 0x20000164)  returns 0x29C (0009ms, 15123ms total)
T3040 4702:853 JLINK_WriteMem(0x20000400, 0x0164 Bytes, ...) - Data: 00 00 00 00 00 00 00 00 00 00 00 00 FF FF FF FF ... -- CPU_WriteMem(356 bytes @ 0x20000400)  returns 0x164 (0005ms, 15128ms total)
T3040 4702:858 JLINK_WriteReg(R0, 0x08000C00)  returns 0x00 (0000ms, 15128ms total)
T3040 4702:858 JLINK_WriteReg(R1, 0x000002A8)  returns 0x00 (0000ms, 15128ms total)
T3040 4702:858 JLINK_WriteReg(R2, 0x20000164)  returns 0x00 (0000ms, 15128ms total)
T3040 4702:858 JLINK_WriteReg(R3, 0x00000000)  returns 0x00 (0000ms, 15128ms total)
T3040 4702:858 JLINK_WriteReg(R4, 0x00000000)  returns 0x00 (0000ms, 15128ms total)
T3040 4702:858 JLINK_WriteReg(R5, 0x00000000)  returns 0x00 (0000ms, 15128ms total)
T3040 4702:858 JLINK_WriteReg(R6, 0x00000000)  returns 0x00 (0000ms, 15128ms total)
T3040 4702:858 JLINK_WriteReg(R7, 0x00000000)  returns 0x00 (0000ms, 15128ms total)
T3040 4702:858 JLINK_WriteReg(R8, 0x00000000)  returns 0x00 (0000ms, 15128ms total)
T3040 4702:858 JLINK_WriteReg(R9, 0x20000160)  returns 0x00 (0000ms, 15128ms total)
T3040 4702:858 JLINK_WriteReg(R10, 0x00000000)  returns 0x00 (0000ms, 15128ms total)
T3040 4702:858 JLINK_WriteReg(R11, 0x00000000)  returns 0x00 (0000ms, 15128ms total)
T3040 4702:858 JLINK_WriteReg(R12, 0x00000000)  returns 0x00 (0000ms, 15128ms total)
T3040 4702:858 JLINK_WriteReg(R13 (SP), 0x20001000)  returns 0x00 (0000ms, 15128ms total)
T3040 4702:858 JLINK_WriteReg(R14, 0x20000001)  returns 0x00 (0000ms, 15128ms total)
T3040 4702:858 JLINK_WriteReg(R15 (PC), 0x200000F4)  returns 0x00 (0000ms, 15128ms total)
T3040 4702:858 JLINK_WriteReg(XPSR, 0x01000000)  returns 0x00 (0000ms, 15128ms total)
T3040 4702:858 JLINK_WriteReg(MSP, 0x20001000)  returns 0x00 (0000ms, 15128ms total)
T3040 4702:858 JLINK_WriteReg(PSP, 0x20001000)  returns 0x00 (0000ms, 15128ms total)
T3040 4702:858 JLINK_WriteReg(CFBP, 0x00000000)  returns 0x00 (0000ms, 15128ms total)
T3040 4702:858 JLINK_SetBPEx(Addr = 0x20000000, Type = 0xFFFFFFF2)  returns 0x0000000F (0000ms, 15128ms total)
T3040 4702:858 JLINK_Go() -- CPU_ReadMem(4 bytes @ 0xE0001000) (0005ms, 15133ms total)
T3040 4702:863 JLINK_IsHalted()  returns FALSE (0000ms, 15133ms total)
T3040 4702:867 JLINK_IsHalted()  returns FALSE (0000ms, 15133ms total)
T3040 4702:869 JLINK_IsHalted()  returns FALSE (0000ms, 15133ms total)
T3040 4702:871 JLINK_IsHalted() -- CPU_ReadMem(2 bytes @ 0x20000000)  returns TRUE (0006ms, 15139ms total)
T3040 4702:877 JLINK_ReadReg(R15 (PC))  returns 0x20000000 (0000ms, 15133ms total)
T3040 4702:877 JLINK_ClrBPEx(BPHandle = 0x0000000F)  returns 0x00 (0000ms, 15133ms total)
T3040 4702:877 JLINK_ReadReg(R0)  returns 0x00000000 (0000ms, 15133ms total)
T3040 4702:877 JLINK_WriteReg(R0, 0x00000002)  returns 0x00 (0000ms, 15133ms total)
T3040 4702:877 JLINK_WriteReg(R1, 0x000002A8)  returns 0x00 (0000ms, 15133ms total)
T3040 4702:877 JLINK_WriteReg(R2, 0x20000164)  returns 0x00 (0000ms, 15133ms total)
T3040 4702:877 JLINK_WriteReg(R3, 0x00000000)  returns 0x00 (0000ms, 15133ms total)
T3040 4702:877 JLINK_WriteReg(R4, 0x00000000)  returns 0x00 (0000ms, 15133ms total)
T3040 4702:877 JLINK_WriteReg(R5, 0x00000000)  returns 0x00 (0000ms, 15133ms total)
T3040 4702:877 JLINK_WriteReg(R6, 0x00000000)  returns 0x00 (0000ms, 15133ms total)
T3040 4702:877 JLINK_WriteReg(R7, 0x00000000)  returns 0x00 (0000ms, 15133ms total)
T3040 4702:877 JLINK_WriteReg(R8, 0x00000000)  returns 0x00 (0000ms, 15133ms total)
T3040 4702:877 JLINK_WriteReg(R9, 0x20000160)  returns 0x00 (0000ms, 15133ms total)
T3040 4702:877 JLINK_WriteReg(R10, 0x00000000)  returns 0x00 (0000ms, 15133ms total)
T3040 4702:877 JLINK_WriteReg(R11, 0x00000000)  returns 0x00 (0000ms, 15133ms total)
T3040 4702:877 JLINK_WriteReg(R12, 0x00000000)  returns 0x00 (0000ms, 15133ms total)
T3040 4702:877 JLINK_WriteReg(R13 (SP), 0x20001000)  returns 0x00 (0000ms, 15133ms total)
T3040 4702:877 JLINK_WriteReg(R14, 0x20000001)  returns 0x00 (0000ms, 15133ms total)
T3040 4702:877 JLINK_WriteReg(R15 (PC), 0x2000006A)  returns 0x00 (0000ms, 15133ms total)
T3040 4702:877 JLINK_WriteReg(XPSR, 0x01000000)  returns 0x00 (0000ms, 15133ms total)
T3040 4702:878 JLINK_WriteReg(MSP, 0x20001000)  returns 0x00 (0000ms, 15133ms total)
T3040 4702:878 JLINK_WriteReg(PSP, 0x20001000)  returns 0x00 (0000ms, 15133ms total)
T3040 4702:878 JLINK_WriteReg(CFBP, 0x00000000)  returns 0x00 (0000ms, 15133ms total)
T3040 4702:878 JLINK_SetBPEx(Addr = 0x20000000, Type = 0xFFFFFFF2)  returns 0x00000010 (0000ms, 15133ms total)
T3040 4702:878 JLINK_Go() -- CPU_ReadMem(4 bytes @ 0xE0001000) (0004ms, 15137ms total)
T3040 4702:882 JLINK_IsHalted() -- CPU_ReadMem(2 bytes @ 0x20000000)  returns TRUE (0004ms, 15141ms total)
T3040 4702:886 JLINK_ReadReg(R15 (PC))  returns 0x20000000 (0000ms, 15137ms total)
T3040 4702:886 JLINK_ClrBPEx(BPHandle = 0x00000010)  returns 0x00 (0000ms, 15137ms total)
T3040 4702:886 JLINK_ReadReg(R0)  returns 0x00000000 (0000ms, 15137ms total)
T3040 4702:944 JLINK_WriteMem(0x20000000, 0x0164 Bytes, ...) - Data: 00 BE 0A E0 0D 78 2D 06 68 40 08 24 40 00 00 D3 ... -- CPU_WriteMem(356 bytes @ 0x20000000)  returns 0x164 (0005ms, 15142ms total)
